T0970 299:398 SEGGER J-Link V6.46 Log File (0000ms, 3703ms total)
T0970 299:398 DLL Compiled: May 23 2019 17:49:56 (0000ms, 3703ms total)
T0970 299:398 Logging started @ 2020-02-06 15:11 (0000ms, 3703ms total)
T0970 299:398 JLINK_SetWarnOutHandler(...) (0000ms, 3703ms total)
T0970 299:398 JLINK_OpenEx(...)
Firmware: J-Link V10 compiled Nov  8 2019 16:40:12
Hardware: V10.10
S/N: 260110152
OEM: SEGGER-EDU
Feature(s): FlashBP, GDB
TELNET listener socket opened on port 19021WEBSRV 
Starting webserver (0059ms, 3762ms total)
T0970 299:398 WEBSRV Webserver running on local port 19080 (0059ms, 3762ms total)
T0970 299:398   returns O.K. (0059ms, 3762ms total)
T0970 299:458 JLINK_GetEmuCaps()  returns 0xB9FF7BBF (0000ms, 3762ms total)
T0970 299:458 JLINK_TIF_GetAvailable(...) (0001ms, 3763ms total)
T0970 299:459 JLINK_SetErrorOutHandler(...) (0000ms, 3763ms total)
T0970 299:459 JLINK_ExecCommand("ProjectFile = "D:\Designs\ARM\Keil_Projects\STM32F439_Template\JLinkSettings.ini"", ...).   returns 0x00 (0002ms, 3765ms total)
T0970 299:461 JLINK_ExecCommand("Device = STM32F439IITx", ...). Device "STM32F439II" selected.  returns 0x00 (0002ms, 3767ms total)
T0970 299:463 JLINK_ExecCommand("DisableConnectionTimeout", ...).   returns 0x01 (0000ms, 3767ms total)
T0970 299:463 JLINK_GetHardwareVersion()  returns 0x18A88 (0000ms, 3767ms total)
T0970 299:463 JLINK_GetDLLVersion()  returns 64600 (0000ms, 3767ms total)
T0970 299:463 JLINK_GetDLLVersion()  returns 64600 (0000ms, 3767ms total)
T0970 299:463 JLINK_GetCompileDateTime() (0000ms, 3767ms total)
T0970 299:463 JLINK_GetFirmwareString(...) (0000ms, 3767ms total)
T0970 299:463 JLINK_GetHardwareVersion()  returns 0x18A88 (0000ms, 3767ms total)
T0970 299:463 JLINK_TIF_Select(JLINKARM_TIF_JTAG)  returns 0x00 (0006ms, 3773ms total)
T0970 299:469 JLINK_SetSpeed(5000) (0001ms, 3774ms total)
T0970 299:470 JLINK_GetIdData(...) >0x2F8 JTAG>TotalIRLen = 9, IRPrint = 0x0011 >0x30 JTAG> >0x50 JTAG>JTAG chain detection found 2 devices: #0 Id: 0x4BA00477, IRLen: 04, CoreSight JTAG-DP #1 Id: 0x06419041, IRLen: 05, STM32 Boundary Scan >0x40 JTAG> >0x40 JTAG> >0x40 JTAG> >0x30 JTAG> >0x40 JTAG> >0x40 JTAG> >0x40 JTAG> >0x40 JTAG> >0x40 JTAG> >0x40 JTAG> >0x40 JTAG> >0x40 JTAG> >0x40 JTAG> >0x40 JTAG> >0x40 JTAG> >0x40 JTAG> >0x40 JTAG> >0x40 JTAG> >0x40 JTAG> >0x40 JTAG> >0x40 JTAG> >0x40 JTAG>
 >0x40 JTAG> >0x40 JTAG> >0x40 JTAG> >0x40 JTAG> >0x40 JTAG> >0x2F8 JTAG>TotalIRLen = 9, IRPrint = 0x0011 >0x30 JTAG> >0x50 JTAG>JTAG chain detection found 2 devices: #0 Id: 0x4BA00477, IRLen: 04, CoreSight JTAG-DP #1 Id: 0x06419041, IRLen: 05, STM32 Boundary ScanScanning AP map to find all available APs >0x80 JTAG> >0x50 JTAG> >0x40 JTAG> >0x40 JTAG> >0x50 JTAG> >0x40 JTAG>AP[1]: Stopped AP scan as end of AP map has been reachedAP[0]: AHB-AP (IDR: 0x24770011)
Iterating through AP map to find AHB-AP to use >0x80 JTAG> >0x50 JTAG> >0x50 JTAG> >0x70 JTAG> >0x40 JTAG> >0x30 JTAG> >0x40 JTAG> >0x40 JTAG>AP[0]: Core foundAP[0]: AHB-AP ROM base: 0xE00FF000 >0x40 JTAG> >0x40 JTAG> >0x30 JTAG> >0x40 JTAG> >0x40 JTAG>CPUID register: 0x410FC241. Implementer code: 0x41 (ARM)Found Cortex-M4 r0p1, Little endian. -- Max. mem block: 0x00004720 -- CPU_ReadMem(4 bytes @ 0xE000EDF0) -- CPU_WriteMem(4 bytes @ 0xE000EDF0) -- CPU_ReadMem(4 bytes @ 0xE0002000)
FPUnit: 6 code (BP) slots and 2 literal slots -- CPU_ReadMem(4 bytes @ 0xE000EDFC) -- CPU_WriteMem(4 bytes @ 0xE000EDFC) -- CPU_ReadMem(4 bytes @ 0xE0001000) -- CPU_WriteMem(4 bytes @ 0xE0001000) -- CPU_ReadMem(4 bytes @ 0xE000ED88) -- CPU_WriteMem(4 bytes @ 0xE000ED88) -- CPU_ReadMem(4 bytes @ 0xE000ED88) -- CPU_WriteMem(4 bytes @ 0xE000ED88)CoreSight components:ROMTbl[0] @ E00FF000 -- CPU_ReadMem(16 bytes @ 0xE00FF000) -- CPU_ReadMem(16 bytes @ 0xE000EFF0) -- CPU_ReadMem(16 bytes @ 0xE000EFE0)
ROMTbl[0][0]: E000E000, CID: B105E00D, PID: 000BB00C SCS-M7 -- CPU_ReadMem(16 bytes @ 0xE0001FF0) -- CPU_ReadMem(16 bytes @ 0xE0001FE0)ROMTbl[0][1]: E0001000, CID: B105E00D, PID: 003BB002 DWT -- CPU_ReadMem(16 bytes @ 0xE0002FF0) -- CPU_ReadMem(16 bytes @ 0xE0002FE0)ROMTbl[0][2]: E0002000, CID: B105E00D, PID: 002BB003 FPB -- CPU_ReadMem(16 bytes @ 0xE0000FF0) -- CPU_ReadMem(16 bytes @ 0xE0000FE0)ROMTbl[0][3]: E0000000, CID: B105E00D, PID: 003BB001 ITM -- CPU_ReadMem(16 bytes @ 0xE00FF010)
 -- CPU_ReadMem(16 bytes @ 0xE0040FF0) -- CPU_ReadMem(16 bytes @ 0xE0040FE0)ROMTbl[0][4]: E0040000, CID: B105900D, PID: 000BB9A1 TPIU -- CPU_ReadMem(16 bytes @ 0xE0041FF0) -- CPU_ReadMem(16 bytes @ 0xE0041FE0)ROMTbl[0][5]: E0041000, CID: B105900D, PID: 000BB925 ETM ScanLen=9 NumDevices=2 aId[0]=0x4BA00477 aIrRead[0]=0 aScanLen[0]=0 aScanRead[0]=0 (0084ms, 3858ms total)
T0970 299:554 JLINK_JTAG_GetDeviceID(DeviceIndex = 0)  returns 0x4BA00477 (0000ms, 3858ms total)
T0970 299:554 JLINK_JTAG_GetDeviceInfo(DeviceIndex = 0)  returns 0x00 (0000ms, 3858ms total)
T0970 299:554 JLINK_JTAG_GetDeviceID(DeviceIndex = 1)  returns 0x6419041 (0000ms, 3858ms total)
T0970 299:554 JLINK_JTAG_GetDeviceInfo(DeviceIndex = 1)  returns 0x00 (0000ms, 3858ms total)
T0970 299:554 JLINK_GetDLLVersion()  returns 64600 (0000ms, 3858ms total)
T0970 299:554 JLINK_CORE_GetFound()  returns 0xE0000FF (0000ms, 3858ms total)
T0970 299:554 JLINK_GetDebugInfo(0x100 = JLINKARM_ROM_TABLE_ADDR_INDEX) -- Value=0xE00FF000  returns 0x00 (0000ms, 3858ms total)
T0970 299:555 JLINK_GetDebugInfo(0x100 = JLINKARM_ROM_TABLE_ADDR_INDEX) -- Value=0xE00FF000  returns 0x00 (0000ms, 3858ms total)
T0970 299:555 JLINK_GetDebugInfo(0x101 = JLINKARM_DEBUG_INFO_ETM_ADDR_INDEX) -- Value=0xE0041000  returns 0x00 (0000ms, 3858ms total)
T0970 299:555 JLINK_ReadMemEx(0xE0041FD0, 0x0020 Bytes, ..., Flags = 0x02000004) -- CPU_ReadMem(32 bytes @ 0xE0041FD0) - Data: 04 00 00 00 00 00 00 00 00 00 00 00 00 00 00 00 ...  returns 0x20 (0001ms, 3859ms total)
T0970 299:556 JLINK_GetDebugInfo(0x102 = JLINKARM_DEBUG_INFO_MTB_ADDR_INDEX) -- Value=0x00000000  returns 0x00 (0000ms, 3859ms total)
T0970 299:556 JLINK_GetDebugInfo(0x103 = JLINKARM_DEBUG_INFO_TPIU_ADDR_INDEX) -- Value=0xE0040000  returns 0x00 (0000ms, 3859ms total)
T0970 299:556 JLINK_GetDebugInfo(0x104 = JLINKARM_DEBUG_INFO_ITM_ADDR_INDEX) -- Value=0xE0000000  returns 0x00 (0000ms, 3859ms total)
T0970 299:556 JLINK_GetDebugInfo(0x105 = JLINKARM_DEBUG_INFO_DWT_ADDR_INDEX) -- Value=0xE0001000  returns 0x00 (0000ms, 3859ms total)
T0970 299:556 JLINK_GetDebugInfo(0x106 = JLINKARM_DEBUG_INFO_FPB_ADDR_INDEX) -- Value=0xE0002000  returns 0x00 (0000ms, 3859ms total)
T0970 299:556 JLINK_GetDebugInfo(0x107 = JLINKARM_DEBUG_INFO_NVIC_ADDR_INDEX) -- Value=0xE000E000  returns 0x00 (0000ms, 3859ms total)
T0970 299:556 JLINK_GetDebugInfo(0x10C = JLINKARM_DEBUG_INFO_DBG_ADDR_INDEX) -- Value=0xE000EDF0  returns 0x00 (0000ms, 3859ms total)
T0970 299:556 JLINK_GetDebugInfo(0x01 = Unknown) -- Value=0x00000001  returns 0x00 (0000ms, 3859ms total)
T0970 299:556 JLINK_ReadMemU32(0xE000ED00, 0x0001 Items, ...) -- CPU_ReadMem(4 bytes @ 0xE000ED00) - Data: 41 C2 0F 41  returns 1 (0002ms, 3861ms total)
T0970 299:558 JLINK_GetDebugInfo(0x10F = JLINKARM_DEBUG_INFO_HAS_CORTEX_M_SECURITY_EXT_INDEX) -- Value=0x00000000  returns 0x00 (0000ms, 3861ms total)
T0970 299:558 JLINK_SetResetType(JLINKARM_CM3_RESET_TYPE_NORMAL)  returns JLINKARM_CM3_RESET_TYPE_NORMAL (0000ms, 3861ms total)
T0970 299:558 JLINK_Reset() -- CPU is running -- CPU_WriteMem(4 bytes @ 0xE000EDF0) -- CPU is running -- CPU_WriteMem(4 bytes @ 0xE000EDFC)Reset: Halt core after reset via DEMCR.VC_CORERESET.Reset: Reset device via AIRCR.SYSRESETREQ. -- CPU is running -- CPU_WriteMem(4 bytes @ 0xE000ED0C) -- CPU_ReadMem(4 bytes @ 0xE000EDF0) -- CPU_ReadMem(4 bytes @ 0xE000EDF0) -- CPU is running -- CPU_WriteMem(4 bytes @ 0xE000EDF0) -- CPU is running -- CPU_WriteMem(4 bytes @ 0xE000EDFC)
 -- CPU_ReadMem(4 bytes @ 0xE000EDF0) -- CPU_WriteMem(4 bytes @ 0xE000EDFC) -- CPU_WriteMem(4 bytes @ 0xE0001028) -- CPU_WriteMem(4 bytes @ 0xE0001038) -- CPU_WriteMem(4 bytes @ 0xE0001048) -- CPU_WriteMem(4 bytes @ 0xE0001058) -- CPU_WriteMem(4 bytes @ 0xE0002000) -- CPU_ReadMem(4 bytes @ 0xE000EDFC) -- CPU_ReadMem(4 bytes @ 0xE0001000) (0074ms, 3935ms total)
T0970 299:633 JLINK_ReadReg(R15 (PC))  returns 0x08000330 (0000ms, 3935ms total)
T0970 299:633 JLINK_ReadReg(XPSR)  returns 0x01000000 (0000ms, 3935ms total)
T0970 299:633 JLINK_Halt()  returns 0x00 (0000ms, 3935ms total)
T0970 299:633 JLINK_ReadMemU32(0xE000EDF0, 0x0001 Items, ...) -- CPU_ReadMem(4 bytes @ 0xE000EDF0) - Data: 03 00 03 00  returns 1 (0001ms, 3936ms total)
T0970 299:634 JLINK_WriteU32(0xE000EDF0, 0xA05F0003) -- CPU_WriteMem(4 bytes @ 0xE000EDF0)  returns 0 (0001ms, 3937ms total)
T0970 299:635 JLINK_WriteU32(0xE000EDFC, 0x01000000) -- CPU_WriteMem(4 bytes @ 0xE000EDFC)  returns 0 (0001ms, 3938ms total)
T0970 299:636 JLINK_GetHWStatus(...)  returns 0x00 (0001ms, 3939ms total)
T0970 299:637 JLINK_GetNumBPUnits(Type = 0xFFFFFF00)  returns 0x06 (0000ms, 3939ms total)
T0970 299:637 JLINK_GetNumBPUnits(Type = 0xF0)  returns 0x2000 (0000ms, 3939ms total)
T0970 299:637 JLINK_GetNumWPUnits()  returns 0x04 (0000ms, 3939ms total)
T0970 299:637 JLINK_GetSpeed()  returns 0x1388 (0000ms, 3939ms total)
T0970 299:637 JLINK_ReadMemU32(0xE000E004, 0x0001 Items, ...) -- CPU_ReadMem(4 bytes @ 0xE000E004) - Data: 02 00 00 00  returns 1 (0001ms, 3940ms total)
T0970 299:638 JLINK_ReadMemU32(0xE000E004, 0x0001 Items, ...) -- CPU_ReadMem(4 bytes @ 0xE000E004) - Data: 02 00 00 00  returns 1 (0001ms, 3941ms total)
T0970 299:639 JLINK_WriteMemEx(0xE0001000, 0x001C Bytes, ..., Flags = 0x02000004) - Data: 01 00 00 00 00 00 00 00 00 00 00 00 00 00 00 00 ... -- CPU_WriteMem(28 bytes @ 0xE0001000)  returns 0x1C (0001ms, 3942ms total)
T0970 299:641 JLINK_ReadReg(R15 (PC))  returns 0x08000330 (0000ms, 3942ms total)
T0970 299:641 JLINK_ReadReg(XPSR)  returns 0x01000000 (0000ms, 3942ms total)
T0970 299:645 JLINK_ReadMemEx(0xE0001004, 0x0004 Bytes, ..., Flags = 0x02000000) - Data: 00 00 00 00  returns 0x04 (0000ms, 3942ms total)
T0970 299:726 JLINK_WriteMemEx(0x20000000, 0x0834 Bytes, ..., Flags = 0x02000000) - Data: 08 64 01 20 15 03 00 20 C1 01 00 20 C3 01 00 20 ... -- CPU_WriteMem(2100 bytes @ 0x20000000)  returns 0x834 (0013ms, 3955ms total)
T0970 299:792 JLINK_SetResetType(JLINKARM_CM3_RESET_TYPE_NORMAL)  returns JLINKARM_CM3_RESET_TYPE_NORMAL (0000ms, 3955ms total)
T0970 299:792 JLINK_Reset() -- CPU_WriteMem(4 bytes @ 0xE000EDF0) -- CPU_WriteMem(4 bytes @ 0xE000EDFC)Reset: Halt core after reset via DEMCR.VC_CORERESET.Reset: Reset device via AIRCR.SYSRESETREQ. -- CPU_WriteMem(4 bytes @ 0xE000ED0C) -- CPU_ReadMem(4 bytes @ 0xE000EDF0) -- CPU_ReadMem(4 bytes @ 0xE000EDF0) -- CPU_WriteMem(4 bytes @ 0xE000EDF0) -- CPU_WriteMem(4 bytes @ 0xE000EDFC) -- CPU_ReadMem(4 bytes @ 0xE000EDF0) -- CPU_WriteMem(4 bytes @ 0xE000EDFC) -- CPU_WriteMem(4 bytes @ 0xE0001028)
 -- CPU_WriteMem(4 bytes @ 0xE0001038) -- CPU_WriteMem(4 bytes @ 0xE0001048) -- CPU_WriteMem(4 bytes @ 0xE0001058) -- CPU_WriteMem(4 bytes @ 0xE0002000) -- CPU_ReadMem(4 bytes @ 0xE000EDFC) -- CPU_ReadMem(4 bytes @ 0xE0001000) (0074ms, 4029ms total)
T0970 299:867 JLINK_ReadReg(R15 (PC))  returns 0x08000330 (0000ms, 4030ms total)
T0970 299:867 JLINK_ReadReg(XPSR)  returns 0x01000000 (0000ms, 4030ms total)
T0970 299:867 JLINK_ReadMemEx(0x08000330, 0x003C Bytes, ..., Flags = 0x02000000) -- CPU_ReadMem(128 bytes @ 0x08000300) -- Updating C cache (128 bytes @ 0x08000300) -- Read from C cache (60 bytes @ 0x08000330) - Data: 06 48 80 47 06 48 00 47 FE E7 FE E7 FE E7 FE E7 ...  returns 0x3C (0001ms, 4031ms total)
T0970 299:868 JLINK_ReadMemEx(0x08000330, 0x0002 Bytes, ..., Flags = 0x02000000) -- Read from C cache (2 bytes @ 0x08000330) - Data: 06 48  returns 0x02 (0001ms, 4032ms total)
T0970 299:869 JLINK_ReadMemEx(0x08000332, 0x0002 Bytes, ..., Flags = 0x02000000) -- Read from C cache (2 bytes @ 0x08000332) - Data: 80 47  returns 0x02 (0000ms, 4032ms total)
T0970 299:869 JLINK_ReadMemEx(0x08000332, 0x0002 Bytes, ..., Flags = 0x02000000) -- Read from C cache (2 bytes @ 0x08000332) - Data: 80 47  returns 0x02 (0001ms, 4033ms total)
T0970 299:870 JLINK_ReadMemEx(0x08000334, 0x003C Bytes, ..., Flags = 0x02000000) -- Read from C cache (60 bytes @ 0x08000334) - Data: 06 48 00 47 FE E7 FE E7 FE E7 FE E7 FE E7 FE E7 ...  returns 0x3C (0000ms, 4033ms total)
T0970 299:870 JLINK_ReadMemEx(0x08000334, 0x0002 Bytes, ..., Flags = 0x02000000) -- Read from C cache (2 bytes @ 0x08000334) - Data: 06 48  returns 0x02 (0000ms, 4033ms total)
T0970 299:870 JLINK_ReadMemEx(0x08000334, 0x003C Bytes, ..., Flags = 0x02000000) -- Read from C cache (60 bytes @ 0x08000334) - Data: 06 48 00 47 FE E7 FE E7 FE E7 FE E7 FE E7 FE E7 ...  returns 0x3C (0000ms, 4033ms total)
T0970 299:870 JLINK_ReadMemEx(0x08000334, 0x0002 Bytes, ..., Flags = 0x02000000) -- Read from C cache (2 bytes @ 0x08000334) - Data: 06 48  returns 0x02 (0000ms, 4033ms total)
T0970 299:870 JLINK_ReadMemEx(0x08000336, 0x0002 Bytes, ..., Flags = 0x02000000) -- Read from C cache (2 bytes @ 0x08000336) - Data: 00 47  returns 0x02 (0000ms, 4033ms total)
T0970 299:870 JLINK_ReadMemEx(0x08000336, 0x0002 Bytes, ..., Flags = 0x02000000) -- Read from C cache (2 bytes @ 0x08000336) - Data: 00 47  returns 0x02 (0000ms, 4033ms total)
T0970 299:870 JLINK_ReadMemEx(0x08000338, 0x003C Bytes, ..., Flags = 0x02000000) -- Read from C cache (60 bytes @ 0x08000338) - Data: FE E7 FE E7 FE E7 FE E7 FE E7 FE E7 FE E7 FE E7 ...  returns 0x3C (0000ms, 4033ms total)
T0970 299:870 JLINK_ReadMemEx(0x08000338, 0x0002 Bytes, ..., Flags = 0x02000000) -- Read from C cache (2 bytes @ 0x08000338) - Data: FE E7  returns 0x02 (0000ms, 4033ms total)
T0970 299:870 JLINK_ReadMemEx(0x08000338, 0x003C Bytes, ..., Flags = 0x02000000) -- Read from C cache (60 bytes @ 0x08000338) - Data: FE E7 FE E7 FE E7 FE E7 FE E7 FE E7 FE E7 FE E7 ...  returns 0x3C (0001ms, 4034ms total)
T0970 299:871 JLINK_ReadMemEx(0x08000338, 0x0002 Bytes, ..., Flags = 0x02000000) -- Read from C cache (2 bytes @ 0x08000338) - Data: FE E7  returns 0x02 (0000ms, 4034ms total)
T0970 299:871 JLINK_ReadMemEx(0x0800033A, 0x0002 Bytes, ..., Flags = 0x02000000) -- Read from C cache (2 bytes @ 0x0800033A) - Data: FE E7  returns 0x02 (0000ms, 4034ms total)
T0970 299:871 JLINK_ReadMemEx(0x0800033A, 0x0002 Bytes, ..., Flags = 0x02000000) -- Read from C cache (2 bytes @ 0x0800033A) - Data: FE E7  returns 0x02 (0000ms, 4034ms total)
T0970 299:871 JLINK_ReadMemEx(0x0800033C, 0x003C Bytes, ..., Flags = 0x02000000) -- Read from C cache (60 bytes @ 0x0800033C) - Data: FE E7 FE E7 FE E7 FE E7 FE E7 FE E7 FE E7 FE E7 ...  returns 0x3C (0000ms, 4034ms total)
T0970 299:871 JLINK_ReadMemEx(0x0800033C, 0x0002 Bytes, ..., Flags = 0x02000000) -- Read from C cache (2 bytes @ 0x0800033C) - Data: FE E7  returns 0x02 (0000ms, 4034ms total)
T0970 299:871 JLINK_ReadMemEx(0x0800033C, 0x003C Bytes, ..., Flags = 0x02000000) -- Read from C cache (60 bytes @ 0x0800033C) - Data: FE E7 FE E7 FE E7 FE E7 FE E7 FE E7 FE E7 FE E7 ...  returns 0x3C (0000ms, 4034ms total)
T0970 299:871 JLINK_ReadMemEx(0x0800033C, 0x0002 Bytes, ..., Flags = 0x02000000) -- Read from C cache (2 bytes @ 0x0800033C) - Data: FE E7  returns 0x02 (0000ms, 4034ms total)
T0970 299:871 JLINK_ReadMemEx(0x0800033E, 0x0002 Bytes, ..., Flags = 0x02000000) -- Read from C cache (2 bytes @ 0x0800033E) - Data: FE E7  returns 0x02 (0000ms, 4034ms total)
T0970 299:871 JLINK_ReadMemEx(0x0800033E, 0x0002 Bytes, ..., Flags = 0x02000000) -- Read from C cache (2 bytes @ 0x0800033E) - Data: FE E7  returns 0x02 (0000ms, 4034ms total)
T0970 299:872 JLINK_ReadMemEx(0x08000340, 0x003C Bytes, ..., Flags = 0x02000000) -- Read from C cache (60 bytes @ 0x08000340) - Data: FE E7 FE E7 FE E7 FE E7 FE E7 FE E7 EB 06 00 08 ...  returns 0x3C (0000ms, 4035ms total)
T0970 299:872 JLINK_ReadMemEx(0x08000340, 0x0002 Bytes, ..., Flags = 0x02000000) -- Read from C cache (2 bytes @ 0x08000340) - Data: FE E7  returns 0x02 (0000ms, 4035ms total)
T0970 299:951 JLINK_ReadMemEx(0x40023800, 0x0018 Bytes, ..., Flags = 0x02000004) -- CPU_ReadMem(24 bytes @ 0x40023800) - Data: 83 77 00 00 10 30 00 24 00 00 00 00 00 00 00 00 ...  returns 0x18 (0001ms, 4036ms total)
T0970 299:952 JLINK_ReadMemEx(0x40023818, 0x0004 Bytes, ..., Flags = 0x02000004) -- CPU_ReadMem(4 bytes @ 0x40023818) - Data: 00 00 00 00  returns 0x04 (0001ms, 4037ms total)
T0970 299:953 JLINK_ReadMemEx(0x40023820, 0x0004 Bytes, ..., Flags = 0x02000004) -- CPU_ReadMem(4 bytes @ 0x40023820) - Data: 00 00 00 00  returns 0x04 (0001ms, 4038ms total)
T0970 299:954 JLINK_ReadMemEx(0x40023824, 0x0004 Bytes, ..., Flags = 0x02000004) -- CPU_ReadMem(4 bytes @ 0x40023824) - Data: 00 00 00 00  returns 0x04 (0001ms, 4039ms total)
T0970 299:955 JLINK_ReadMemEx(0x40023830, 0x0008 Bytes, ..., Flags = 0x02000004) -- CPU_ReadMem(8 bytes @ 0x40023830) - Data: 00 00 10 00 00 00 00 00  returns 0x08 (0001ms, 4040ms total)
T0970 299:956 JLINK_ReadMemEx(0x40023838, 0x0004 Bytes, ..., Flags = 0x02000004) -- CPU_ReadMem(4 bytes @ 0x40023838) - Data: 00 00 00 00  returns 0x04 (0001ms, 4041ms total)
T0970 299:957 JLINK_ReadMemEx(0x40023840, 0x0004 Bytes, ..., Flags = 0x02000004) -- CPU_ReadMem(4 bytes @ 0x40023840) - Data: 00 00 00 00  returns 0x04 (0001ms, 4042ms total)
T0970 299:958 JLINK_ReadMemEx(0x40023844, 0x0004 Bytes, ..., Flags = 0x02000004) -- CPU_ReadMem(4 bytes @ 0x40023844) - Data: 00 00 00 00  returns 0x04 (0001ms, 4043ms total)
T0970 299:959 JLINK_ReadMemEx(0x40023850, 0x0008 Bytes, ..., Flags = 0x02000004) -- CPU_ReadMem(8 bytes @ 0x40023850) - Data: FF 97 EF 7E F1 00 00 00  returns 0x08 (0001ms, 4044ms total)
T0970 299:960 JLINK_ReadMemEx(0x40023858, 0x0004 Bytes, ..., Flags = 0x02000004) -- CPU_ReadMem(4 bytes @ 0x40023858) - Data: 01 00 00 00  returns 0x04 (0001ms, 4045ms total)
T0970 299:961 JLINK_ReadMemEx(0x40023860, 0x0004 Bytes, ..., Flags = 0x02000004) -- CPU_ReadMem(4 bytes @ 0x40023860) - Data: FF C9 FE F6  returns 0x04 (0001ms, 4046ms total)
T0970 299:962 JLINK_ReadMemEx(0x40023864, 0x0004 Bytes, ..., Flags = 0x02000004) -- CPU_ReadMem(4 bytes @ 0x40023864) - Data: 33 7F 77 04  returns 0x04 (0001ms, 4047ms total)
T0970 299:963 JLINK_ReadMemEx(0x40023870, 0x0004 Bytes, ..., Flags = 0x02000004) -- CPU_ReadMem(4 bytes @ 0x40023870) - Data: 00 00 00 00  returns 0x04 (0001ms, 4048ms total)
T0970 299:964 JLINK_ReadMemEx(0x40023874, 0x0004 Bytes, ..., Flags = 0x02000004) -- CPU_ReadMem(4 bytes @ 0x40023874) - Data: 00 00 00 1E  returns 0x04 (0001ms, 4049ms total)
T0970 299:965 JLINK_ReadMemEx(0x40023880, 0x0004 Bytes, ..., Flags = 0x02000004) -- CPU_ReadMem(4 bytes @ 0x40023880) - Data: 00 00 00 00  returns 0x04 (0001ms, 4050ms total)
T0970 299:966 JLINK_ReadMemEx(0x40023884, 0x0004 Bytes, ..., Flags = 0x02000004) -- CPU_ReadMem(4 bytes @ 0x40023884) - Data: 00 30 00 24  returns 0x04 (0001ms, 4051ms total)
T0970 301:195 JLINK_ReadMemEx(0x08000330, 0x003C Bytes, ..., Flags = 0x02000000) -- Read from C cache (60 bytes @ 0x08000330) - Data: 06 48 80 47 06 48 00 47 FE E7 FE E7 FE E7 FE E7 ...  returns 0x3C (0000ms, 4051ms total)
T0970 301:195 JLINK_ReadMemEx(0x08000330, 0x0002 Bytes, ..., Flags = 0x02000000) -- Read from C cache (2 bytes @ 0x08000330) - Data: 06 48  returns 0x02 (0000ms, 4051ms total)
T0970 301:195 JLINK_ReadMemEx(0x08000332, 0x0002 Bytes, ..., Flags = 0x02000000) -- Read from C cache (2 bytes @ 0x08000332) - Data: 80 47  returns 0x02 (0000ms, 4051ms total)
T0970 301:195 JLINK_ReadMemEx(0x08000332, 0x0002 Bytes, ..., Flags = 0x02000000) -- Read from C cache (2 bytes @ 0x08000332) - Data: 80 47  returns 0x02 (0000ms, 4051ms total)
T0970 301:195 JLINK_ReadMemEx(0x08000334, 0x003C Bytes, ..., Flags = 0x02000000) -- Read from C cache (60 bytes @ 0x08000334) - Data: 06 48 00 47 FE E7 FE E7 FE E7 FE E7 FE E7 FE E7 ...  returns 0x3C (0000ms, 4051ms total)
T0970 301:195 JLINK_ReadMemEx(0x08000334, 0x0002 Bytes, ..., Flags = 0x02000000) -- Read from C cache (2 bytes @ 0x08000334) - Data: 06 48  returns 0x02 (0000ms, 4051ms total)
T0970 301:195 JLINK_ReadMemEx(0x08000334, 0x003C Bytes, ..., Flags = 0x02000000) -- Read from C cache (60 bytes @ 0x08000334) - Data: 06 48 00 47 FE E7 FE E7 FE E7 FE E7 FE E7 FE E7 ...  returns 0x3C (0000ms, 4051ms total)
T0970 301:196 JLINK_ReadMemEx(0x08000334, 0x0002 Bytes, ..., Flags = 0x02000000) -- Read from C cache (2 bytes @ 0x08000334) - Data: 06 48  returns 0x02 (0000ms, 4052ms total)
T0970 301:196 JLINK_ReadMemEx(0x08000336, 0x0002 Bytes, ..., Flags = 0x02000000) -- Read from C cache (2 bytes @ 0x08000336) - Data: 00 47  returns 0x02 (0000ms, 4052ms total)
T0970 301:196 JLINK_ReadMemEx(0x08000336, 0x0002 Bytes, ..., Flags = 0x02000000) -- Read from C cache (2 bytes @ 0x08000336) - Data: 00 47  returns 0x02 (0000ms, 4052ms total)
T0970 301:196 JLINK_ReadMemEx(0x08000338, 0x003C Bytes, ..., Flags = 0x02000000) -- Read from C cache (60 bytes @ 0x08000338) - Data: FE E7 FE E7 FE E7 FE E7 FE E7 FE E7 FE E7 FE E7 ...  returns 0x3C (0000ms, 4052ms total)
T0970 301:196 JLINK_ReadMemEx(0x08000338, 0x0002 Bytes, ..., Flags = 0x02000000) -- Read from C cache (2 bytes @ 0x08000338) - Data: FE E7  returns 0x02 (0000ms, 4052ms total)
T0970 301:196 JLINK_ReadMemEx(0x08000338, 0x003C Bytes, ..., Flags = 0x02000000) -- Read from C cache (60 bytes @ 0x08000338) - Data: FE E7 FE E7 FE E7 FE E7 FE E7 FE E7 FE E7 FE E7 ...  returns 0x3C (0000ms, 4052ms total)
T0970 301:196 JLINK_ReadMemEx(0x08000338, 0x0002 Bytes, ..., Flags = 0x02000000) -- Read from C cache (2 bytes @ 0x08000338) - Data: FE E7  returns 0x02 (0000ms, 4052ms total)
T0970 301:196 JLINK_ReadMemEx(0x0800033A, 0x0002 Bytes, ..., Flags = 0x02000000) -- Read from C cache (2 bytes @ 0x0800033A) - Data: FE E7  returns 0x02 (0000ms, 4052ms total)
T0970 301:196 JLINK_ReadMemEx(0x0800033A, 0x0002 Bytes, ..., Flags = 0x02000000) -- Read from C cache (2 bytes @ 0x0800033A) - Data: FE E7  returns 0x02 (0000ms, 4052ms total)
T0970 301:196 JLINK_ReadMemEx(0x0800033C, 0x003C Bytes, ..., Flags = 0x02000000) -- Read from C cache (60 bytes @ 0x0800033C) - Data: FE E7 FE E7 FE E7 FE E7 FE E7 FE E7 FE E7 FE E7 ...  returns 0x3C (0000ms, 4052ms total)
T0970 301:196 JLINK_ReadMemEx(0x0800033C, 0x0002 Bytes, ..., Flags = 0x02000000) -- Read from C cache (2 bytes @ 0x0800033C) - Data: FE E7  returns 0x02 (0000ms, 4052ms total)
T0970 301:196 JLINK_ReadMemEx(0x0800033C, 0x003C Bytes, ..., Flags = 0x02000000) -- Read from C cache (60 bytes @ 0x0800033C) - Data: FE E7 FE E7 FE E7 FE E7 FE E7 FE E7 FE E7 FE E7 ...  returns 0x3C (0000ms, 4052ms total)
T0970 301:196 JLINK_ReadMemEx(0x0800033C, 0x0002 Bytes, ..., Flags = 0x02000000) -- Read from C cache (2 bytes @ 0x0800033C) - Data: FE E7  returns 0x02 (0000ms, 4052ms total)
T0970 301:196 JLINK_ReadMemEx(0x0800033E, 0x0002 Bytes, ..., Flags = 0x02000000) -- Read from C cache (2 bytes @ 0x0800033E) - Data: FE E7  returns 0x02 (0000ms, 4052ms total)
T0970 301:196 JLINK_ReadMemEx(0x0800033E, 0x0002 Bytes, ..., Flags = 0x02000000) -- Read from C cache (2 bytes @ 0x0800033E) - Data: FE E7  returns 0x02 (0000ms, 4052ms total)
T0970 301:196 JLINK_ReadMemEx(0x08000340, 0x003C Bytes, ..., Flags = 0x02000000) -- Read from C cache (60 bytes @ 0x08000340) - Data: FE E7 FE E7 FE E7 FE E7 FE E7 FE E7 EB 06 00 08 ...  returns 0x3C (0000ms, 4052ms total)
T0970 301:196 JLINK_ReadMemEx(0x08000340, 0x0002 Bytes, ..., Flags = 0x02000000) -- Read from C cache (2 bytes @ 0x08000340) - Data: FE E7  returns 0x02 (0000ms, 4052ms total)
T0970 301:372 JLINK_ReadReg(R0)  returns 0x00000000 (0001ms, 4053ms total)
T0970 301:373 JLINK_ReadReg(R1)  returns 0x00000000 (0000ms, 4053ms total)
T0970 301:373 JLINK_ReadReg(R2)  returns 0x00000000 (0000ms, 4053ms total)
T0970 301:373 JLINK_ReadReg(R3)  returns 0x00000000 (0000ms, 4053ms total)
T0970 301:373 JLINK_ReadReg(R4)  returns 0x00000000 (0000ms, 4053ms total)
T0970 301:373 JLINK_ReadReg(R5)  returns 0x00000000 (0000ms, 4053ms total)
T0970 301:373 JLINK_ReadReg(R6)  returns 0x00000000 (0000ms, 4053ms total)
T0970 301:373 JLINK_ReadReg(R7)  returns 0x00000000 (0001ms, 4054ms total)
T0970 301:374 JLINK_ReadReg(R8)  returns 0x00000000 (0000ms, 4054ms total)
T0970 301:374 JLINK_ReadReg(R9)  returns 0x00000000 (0000ms, 4054ms total)
T0970 301:374 JLINK_ReadReg(R10)  returns 0x00000000 (0000ms, 4054ms total)
T0970 301:374 JLINK_ReadReg(R11)  returns 0x00000000 (0000ms, 4054ms total)
T0970 301:374 JLINK_ReadReg(R12)  returns 0x00000000 (0000ms, 4054ms total)
T0970 301:374 JLINK_ReadReg(R13 (SP))  returns 0x20006408 (0000ms, 4054ms total)
T0970 301:374 JLINK_ReadReg(R14)  returns 0xFFFFFFFF (0000ms, 4054ms total)
T0970 301:374 JLINK_ReadReg(R15 (PC))  returns 0x08000330 (0000ms, 4054ms total)
T0970 301:374 JLINK_ReadReg(XPSR)  returns 0x01000000 (0000ms, 4054ms total)
T0970 301:374 JLINK_ReadReg(MSP)  returns 0x20006408 (0000ms, 4054ms total)
T0970 301:374 JLINK_ReadReg(PSP)  returns 0x00000000 (0000ms, 4054ms total)
T0970 301:374 JLINK_ReadReg(CFBP)  returns 0x00000000 (0000ms, 4054ms total)
T0970 301:374 JLINK_ReadReg(FPSCR)  returns 0x00000000 (0004ms, 4058ms total)
T0970 301:378 JLINK_ReadReg(FPS0)  returns 0x00000000 (0000ms, 4058ms total)
T0970 301:378 JLINK_ReadReg(FPS1)  returns 0x00000000 (0000ms, 4058ms total)
T0970 301:378 JLINK_ReadReg(FPS2)  returns 0x00000000 (0000ms, 4058ms total)
T0970 301:378 JLINK_ReadReg(FPS3)  returns 0x00000000 (0000ms, 4058ms total)
T0970 301:378 JLINK_ReadReg(FPS4)  returns 0x00000000 (0000ms, 4058ms total)
T0970 301:378 JLINK_ReadReg(FPS5)  returns 0x00000000 (0000ms, 4058ms total)
T0970 301:378 JLINK_ReadReg(FPS6)  returns 0x00000000 (0000ms, 4058ms total)
T0970 301:378 JLINK_ReadReg(FPS7)  returns 0x00000000 (0000ms, 4058ms total)
T0970 301:378 JLINK_ReadReg(FPS8)  returns 0x00000000 (0001ms, 4059ms total)
T0970 301:379 JLINK_ReadReg(FPS9)  returns 0x00000000 (0000ms, 4059ms total)
T0970 301:379 JLINK_ReadReg(FPS10)  returns 0x00000000 (0000ms, 4059ms total)
T0970 301:379 JLINK_ReadReg(FPS11)  returns 0x00000000 (0000ms, 4059ms total)
T0970 301:379 JLINK_ReadReg(FPS12)  returns 0x00000000 (0000ms, 4059ms total)
T0970 301:379 JLINK_ReadReg(FPS13)  returns 0x00000000 (0000ms, 4059ms total)
T0970 301:379 JLINK_ReadReg(FPS14)  returns 0x00000000 (0000ms, 4059ms total)
T0970 301:379 JLINK_ReadReg(FPS15)  returns 0x00000000 (0000ms, 4059ms total)
T0970 301:379 JLINK_ReadReg(FPS16)  returns 0x00000000 (0000ms, 4059ms total)
T0970 301:379 JLINK_ReadReg(FPS17)  returns 0x00000000 (0000ms, 4059ms total)
T0970 301:379 JLINK_ReadReg(FPS18)  returns 0x00000000 (0000ms, 4059ms total)
T0970 301:379 JLINK_ReadReg(FPS19)  returns 0x00000000 (0000ms, 4059ms total)
T0970 301:379 JLINK_ReadReg(FPS20)  returns 0x00000000 (0000ms, 4059ms total)
T0970 301:379 JLINK_ReadReg(FPS21)  returns 0x00000000 (0000ms, 4059ms total)
T0970 301:379 JLINK_ReadReg(FPS22)  returns 0x00000000 (0000ms, 4059ms total)
T0970 301:379 JLINK_ReadReg(FPS23)  returns 0x00000000 (0001ms, 4060ms total)
T0970 301:380 JLINK_ReadReg(FPS24)  returns 0x00000000 (0000ms, 4060ms total)
T0970 301:380 JLINK_ReadReg(FPS25)  returns 0x00000000 (0000ms, 4060ms total)
T0970 301:380 JLINK_ReadReg(FPS26)  returns 0x00000000 (0000ms, 4060ms total)
T0970 301:380 JLINK_ReadReg(FPS27)  returns 0x00000000 (0000ms, 4060ms total)
T0970 301:380 JLINK_ReadReg(FPS28)  returns 0x00000000 (0000ms, 4060ms total)
T0970 301:380 JLINK_ReadReg(FPS29)  returns 0x00000000 (0000ms, 4060ms total)
T0970 301:380 JLINK_ReadReg(FPS30)  returns 0x00000000 (0000ms, 4060ms total)
T0970 301:380 JLINK_ReadReg(FPS31)  returns 0x00000000 (0000ms, 4060ms total)
T0970 301:954 JLINK_WriteMemEx(0x20000000, 0x0834 Bytes, ..., Flags = 0x02000000) - Data: 08 64 01 20 15 03 00 20 C1 01 00 20 C3 01 00 20 ... -- CPU_WriteMem(2100 bytes @ 0x20000000)  returns 0x834 (0013ms, 4073ms total)
T0970 302:018 JLINK_ReadMemEx(0x20000000, 0x0004 Bytes, ..., Flags = 0x02000000) -- CPU_ReadMem(64 bytes @ 0x20000000) -- Updating C cache (64 bytes @ 0x20000000) -- Read from C cache (4 bytes @ 0x20000000) - Data: 08 64 01 20  returns 0x04 (0001ms, 4074ms total)
T0970 302:019 JLINK_WriteReg(R13 (SP), 0x20016408)  returns 0x00 (0000ms, 4074ms total)
T0970 302:019 JLINK_ReadReg(R0)  returns 0x00000000 (0001ms, 4075ms total)
T0970 302:020 JLINK_ReadReg(R1)  returns 0x00000000 (0000ms, 4075ms total)
T0970 302:020 JLINK_ReadReg(R2)  returns 0x00000000 (0000ms, 4075ms total)
T0970 302:020 JLINK_ReadReg(R3)  returns 0x00000000 (0000ms, 4075ms total)
T0970 302:020 JLINK_ReadReg(R4)  returns 0x00000000 (0000ms, 4075ms total)
T0970 302:020 JLINK_ReadReg(R5)  returns 0x00000000 (0001ms, 4076ms total)
T0970 302:021 JLINK_ReadReg(R6)  returns 0x00000000 (0000ms, 4076ms total)
T0970 302:021 JLINK_ReadReg(R7)  returns 0x00000000 (0000ms, 4076ms total)
T0970 302:021 JLINK_ReadReg(R8)  returns 0x00000000 (0000ms, 4076ms total)
T0970 302:021 JLINK_ReadReg(R9)  returns 0x00000000 (0000ms, 4076ms total)
T0970 302:021 JLINK_ReadReg(R10)  returns 0x00000000 (0000ms, 4076ms total)
T0970 302:021 JLINK_ReadReg(R11)  returns 0x00000000 (0000ms, 4076ms total)
T0970 302:021 JLINK_ReadReg(R12)  returns 0x00000000 (0000ms, 4076ms total)
T0970 302:021 JLINK_ReadReg(R13 (SP))  returns 0x20016408 (0000ms, 4076ms total)
T0970 302:021 JLINK_ReadReg(R14)  returns 0xFFFFFFFF (0000ms, 4076ms total)
T0970 302:021 JLINK_ReadReg(R15 (PC))  returns 0x08000330 (0000ms, 4076ms total)
T0970 302:021 JLINK_ReadReg(XPSR)  returns 0x01000000 (0000ms, 4076ms total)
T0970 302:021 JLINK_ReadReg(MSP)  returns 0x20016408 (0000ms, 4076ms total)
T0970 302:021 JLINK_ReadReg(PSP)  returns 0x00000000 (0000ms, 4076ms total)
T0970 302:021 JLINK_ReadReg(CFBP)  returns 0x00000000 (0000ms, 4076ms total)
T0970 302:021 JLINK_ReadReg(FPSCR)  returns 0x00000000 (0001ms, 4077ms total)
T0970 302:022 JLINK_ReadReg(FPS0)  returns 0x00000000 (0000ms, 4077ms total)
T0970 302:022 JLINK_ReadReg(FPS1)  returns 0x00000000 (0000ms, 4077ms total)
T0970 302:022 JLINK_ReadReg(FPS2)  returns 0x00000000 (0000ms, 4077ms total)
T0970 302:022 JLINK_ReadReg(FPS3)  returns 0x00000000 (0000ms, 4077ms total)
T0970 302:022 JLINK_ReadReg(FPS4)  returns 0x00000000 (0000ms, 4077ms total)
T0970 302:022 JLINK_ReadReg(FPS5)  returns 0x00000000 (0000ms, 4077ms total)
T0970 302:022 JLINK_ReadReg(FPS6)  returns 0x00000000 (0000ms, 4077ms total)
T0970 302:022 JLINK_ReadReg(FPS7)  returns 0x00000000 (0000ms, 4077ms total)
T0970 302:022 JLINK_ReadReg(FPS8)  returns 0x00000000 (0000ms, 4077ms total)
T0970 302:022 JLINK_ReadReg(FPS9)  returns 0x00000000 (0000ms, 4077ms total)
T0970 302:022 JLINK_ReadReg(FPS10)  returns 0x00000000 (0000ms, 4077ms total)
T0970 302:022 JLINK_ReadReg(FPS11)  returns 0x00000000 (0000ms, 4077ms total)
T0970 302:022 JLINK_ReadReg(FPS12)  returns 0x00000000 (0000ms, 4077ms total)
T0970 302:022 JLINK_ReadReg(FPS13)  returns 0x00000000 (0001ms, 4078ms total)
T0970 302:023 JLINK_ReadReg(FPS14)  returns 0x00000000 (0000ms, 4078ms total)
T0970 302:023 JLINK_ReadReg(FPS15)  returns 0x00000000 (0000ms, 4078ms total)
T0970 302:023 JLINK_ReadReg(FPS16)  returns 0x00000000 (0000ms, 4078ms total)
T0970 302:023 JLINK_ReadReg(FPS17)  returns 0x00000000 (0000ms, 4078ms total)
T0970 302:023 JLINK_ReadReg(FPS18)  returns 0x00000000 (0000ms, 4078ms total)
T0970 302:023 JLINK_ReadReg(FPS19)  returns 0x00000000 (0000ms, 4078ms total)
T0970 302:023 JLINK_ReadReg(FPS20)  returns 0x00000000 (0000ms, 4078ms total)
T0970 302:023 JLINK_ReadReg(FPS21)  returns 0x00000000 (0000ms, 4078ms total)
T0970 302:023 JLINK_ReadReg(FPS22)  returns 0x00000000 (0000ms, 4078ms total)
T0970 302:023 JLINK_ReadReg(FPS23)  returns 0x00000000 (0000ms, 4078ms total)
T0970 302:023 JLINK_ReadReg(FPS24)  returns 0x00000000 (0000ms, 4078ms total)
T0970 302:023 JLINK_ReadReg(FPS25)  returns 0x00000000 (0000ms, 4078ms total)
T0970 302:023 JLINK_ReadReg(FPS26)  returns 0x00000000 (0000ms, 4078ms total)
T0970 302:023 JLINK_ReadReg(FPS27)  returns 0x00000000 (0001ms, 4079ms total)
T0970 302:024 JLINK_ReadReg(FPS28)  returns 0x00000000 (0000ms, 4079ms total)
T0970 302:024 JLINK_ReadReg(FPS29)  returns 0x00000000 (0000ms, 4079ms total)
T0970 302:024 JLINK_ReadReg(FPS30)  returns 0x00000000 (0000ms, 4079ms total)
T0970 302:024 JLINK_ReadReg(FPS31)  returns 0x00000000 (0000ms, 4079ms total)
T0970 302:024 JLINK_ReadMemEx(0x20000004, 0x0004 Bytes, ..., Flags = 0x02000000) -- Read from C cache (4 bytes @ 0x20000004) - Data: 15 03 00 20  returns 0x04 (0000ms, 4079ms total)
T0970 302:024 JLINK_WriteReg(R15 (PC), 0x20000314)  returns 0x00 (0000ms, 4079ms total)
T0970 302:024 JLINK_ReadReg(R0)  returns 0x00000000 (0000ms, 4079ms total)
T0970 302:024 JLINK_ReadReg(R1)  returns 0x00000000 (0000ms, 4079ms total)
T0970 302:024 JLINK_ReadReg(R2)  returns 0x00000000 (0000ms, 4079ms total)
T0970 302:024 JLINK_ReadReg(R3)  returns 0x00000000 (0000ms, 4079ms total)
T0970 302:024 JLINK_ReadReg(R4)  returns 0x00000000 (0000ms, 4079ms total)
T0970 302:024 JLINK_ReadReg(R5)  returns 0x00000000 (0000ms, 4079ms total)
T0970 302:024 JLINK_ReadReg(R6)  returns 0x00000000 (0001ms, 4080ms total)
T0970 302:025 JLINK_ReadReg(R7)  returns 0x00000000 (0000ms, 4080ms total)
T0970 302:025 JLINK_ReadReg(R8)  returns 0x00000000 (0000ms, 4080ms total)
T0970 302:025 JLINK_ReadReg(R9)  returns 0x00000000 (0000ms, 4080ms total)
T0970 302:025 JLINK_ReadReg(R10)  returns 0x00000000 (0000ms, 4080ms total)
T0970 302:025 JLINK_ReadReg(R11)  returns 0x00000000 (0000ms, 4080ms total)
T0970 302:025 JLINK_ReadReg(R12)  returns 0x00000000 (0000ms, 4080ms total)
T0970 302:025 JLINK_ReadReg(R13 (SP))  returns 0x20016408 (0000ms, 4080ms total)
T0970 302:025 JLINK_ReadReg(R14)  returns 0xFFFFFFFF (0000ms, 4080ms total)
T0970 302:025 JLINK_ReadReg(R15 (PC))  returns 0x20000314 (0000ms, 4080ms total)
T0970 302:025 JLINK_ReadReg(XPSR)  returns 0x01000000 (0000ms, 4080ms total)
T0970 302:025 JLINK_ReadReg(MSP)  returns 0x20016408 (0000ms, 4080ms total)
T0970 302:025 JLINK_ReadReg(PSP)  returns 0x00000000 (0000ms, 4080ms total)
T0970 302:025 JLINK_ReadReg(CFBP)  returns 0x00000000 (0000ms, 4080ms total)
T0970 302:025 JLINK_ReadReg(FPSCR)  returns 0x00000000 (0001ms, 4081ms total)
T0970 302:026 JLINK_ReadReg(FPS0)  returns 0x00000000 (0000ms, 4081ms total)
T0970 302:026 JLINK_ReadReg(FPS1)  returns 0x00000000 (0000ms, 4081ms total)
T0970 302:026 JLINK_ReadReg(FPS2)  returns 0x00000000 (0000ms, 4081ms total)
T0970 302:026 JLINK_ReadReg(FPS3)  returns 0x00000000 (0000ms, 4081ms total)
T0970 302:026 JLINK_ReadReg(FPS4)  returns 0x00000000 (0000ms, 4081ms total)
T0970 302:026 JLINK_ReadReg(FPS5)  returns 0x00000000 (0000ms, 4081ms total)
T0970 302:026 JLINK_ReadReg(FPS6)  returns 0x00000000 (0000ms, 4081ms total)
T0970 302:026 JLINK_ReadReg(FPS7)  returns 0x00000000 (0000ms, 4081ms total)
T0970 302:026 JLINK_ReadReg(FPS8)  returns 0x00000000 (0000ms, 4081ms total)
T0970 302:026 JLINK_ReadReg(FPS9)  returns 0x00000000 (0000ms, 4081ms total)
T0970 302:026 JLINK_ReadReg(FPS10)  returns 0x00000000 (0000ms, 4081ms total)
T0970 302:026 JLINK_ReadReg(FPS11)  returns 0x00000000 (0000ms, 4081ms total)
T0970 302:026 JLINK_ReadReg(FPS12)  returns 0x00000000 (0000ms, 4081ms total)
T0970 302:026 JLINK_ReadReg(FPS13)  returns 0x00000000 (0000ms, 4081ms total)
T0970 302:026 JLINK_ReadReg(FPS14)  returns 0x00000000 (0001ms, 4082ms total)
T0970 302:027 JLINK_ReadReg(FPS15)  returns 0x00000000 (0000ms, 4082ms total)
T0970 302:027 JLINK_ReadReg(FPS16)  returns 0x00000000 (0000ms, 4082ms total)
T0970 302:027 JLINK_ReadReg(FPS17)  returns 0x00000000 (0000ms, 4082ms total)
T0970 302:027 JLINK_ReadReg(FPS18)  returns 0x00000000 (0000ms, 4082ms total)
T0970 302:027 JLINK_ReadReg(FPS19)  returns 0x00000000 (0000ms, 4082ms total)
T0970 302:027 JLINK_ReadReg(FPS20)  returns 0x00000000 (0000ms, 4082ms total)
T0970 302:027 JLINK_ReadReg(FPS21)  returns 0x00000000 (0000ms, 4082ms total)
T0970 302:027 JLINK_ReadReg(FPS22)  returns 0x00000000 (0000ms, 4082ms total)
T0970 302:027 JLINK_ReadReg(FPS23)  returns 0x00000000 (0000ms, 4082ms total)
T0970 302:027 JLINK_ReadReg(FPS24)  returns 0x00000000 (0000ms, 4082ms total)
T0970 302:027 JLINK_ReadReg(FPS25)  returns 0x00000000 (0000ms, 4082ms total)
T0970 302:027 JLINK_ReadReg(FPS26)  returns 0x00000000 (0000ms, 4082ms total)
T0970 302:027 JLINK_ReadReg(FPS27)  returns 0x00000000 (0000ms, 4082ms total)
T0970 302:027 JLINK_ReadReg(FPS28)  returns 0x00000000 (0001ms, 4083ms total)
T0970 302:028 JLINK_ReadReg(FPS29)  returns 0x00000000 (0000ms, 4083ms total)
T0970 302:028 JLINK_ReadReg(FPS30)  returns 0x00000000 (0000ms, 4083ms total)
T0970 302:028 JLINK_ReadReg(FPS31)  returns 0x00000000 (0000ms, 4083ms total)
T0970 302:028 JLINK_WriteMemEx(0xE000ED08, 0x0004 Bytes, ..., Flags = 0x02000000) - Data: 00 00 00 20 -- CPU_WriteMem(4 bytes @ 0xE000ED08)  returns 0x04 (0001ms, 4084ms total)
T0970 302:072 JLINK_ReadMemU32(0xE0001004, 0x0001 Items, ...) - Data: 00 00 00 00  returns 1 (0000ms, 4084ms total)
T0970 302:073 JLINK_ReadMemEx(0x40023800, 0x0018 Bytes, ..., Flags = 0x02000004) -- CPU_ReadMem(24 bytes @ 0x40023800) - Data: 83 77 00 00 10 30 00 24 00 00 00 00 00 00 00 00 ...  returns 0x18 (0001ms, 4086ms total)
T0970 302:074 JLINK_ReadMemEx(0x40023818, 0x0004 Bytes, ..., Flags = 0x02000004) -- CPU_ReadMem(4 bytes @ 0x40023818) - Data: 00 00 00 00  returns 0x04 (0000ms, 4086ms total)
T0970 302:074 JLINK_ReadMemEx(0x40023820, 0x0004 Bytes, ..., Flags = 0x02000004) -- CPU_ReadMem(4 bytes @ 0x40023820) - Data: 00 00 00 00  returns 0x04 (0001ms, 4087ms total)
T0970 302:076 JLINK_ReadMemEx(0x40023824, 0x0004 Bytes, ..., Flags = 0x02000004) -- CPU_ReadMem(4 bytes @ 0x40023824) - Data: 00 00 00 00  returns 0x04 (0000ms, 4088ms total)
T0970 302:076 JLINK_ReadMemEx(0x40023830, 0x0008 Bytes, ..., Flags = 0x02000004) -- CPU_ReadMem(8 bytes @ 0x40023830) - Data: 00 00 10 00 00 00 00 00  returns 0x08 (0001ms, 4089ms total)
T0970 302:078 JLINK_ReadMemEx(0x40023838, 0x0004 Bytes, ..., Flags = 0x02000004) -- CPU_ReadMem(4 bytes @ 0x40023838) - Data: 00 00 00 00  returns 0x04 (0000ms, 4090ms total)
T0970 302:078 JLINK_ReadMemEx(0x40023840, 0x0004 Bytes, ..., Flags = 0x02000004) -- CPU_ReadMem(4 bytes @ 0x40023840) - Data: 00 00 00 00  returns 0x04 (0001ms, 4091ms total)
T0970 302:080 JLINK_ReadMemEx(0x40023844, 0x0004 Bytes, ..., Flags = 0x02000004) -- CPU_ReadMem(4 bytes @ 0x40023844) - Data: 00 00 00 00  returns 0x04 (0000ms, 4092ms total)
T0970 302:080 JLINK_ReadMemEx(0x40023850, 0x0008 Bytes, ..., Flags = 0x02000004) -- CPU_ReadMem(8 bytes @ 0x40023850) - Data: FF 97 EF 7E F1 00 00 00  returns 0x08 (0001ms, 4093ms total)
T0970 302:081 JLINK_ReadMemEx(0x40023858, 0x0004 Bytes, ..., Flags = 0x02000004) -- CPU_ReadMem(4 bytes @ 0x40023858) - Data: 01 00 00 00  returns 0x04 (0002ms, 4095ms total)
T0970 302:083 JLINK_ReadMemEx(0x40023860, 0x0004 Bytes, ..., Flags = 0x02000004) -- CPU_ReadMem(4 bytes @ 0x40023860) - Data: FF C9 FE F6  returns 0x04 (0000ms, 4095ms total)
T0970 302:084 JLINK_ReadMemEx(0x40023864, 0x0004 Bytes, ..., Flags = 0x02000004) -- CPU_ReadMem(4 bytes @ 0x40023864) - Data: 33 7F 77 04  returns 0x04 (0000ms, 4096ms total)
T0970 302:085 JLINK_ReadMemEx(0x40023870, 0x0004 Bytes, ..., Flags = 0x02000004) -- CPU_ReadMem(4 bytes @ 0x40023870) - Data: 00 00 00 00  returns 0x04 (0000ms, 4097ms total)
T0970 302:085 JLINK_ReadMemEx(0x40023874, 0x0004 Bytes, ..., Flags = 0x02000004) -- CPU_ReadMem(4 bytes @ 0x40023874) - Data: 00 00 00 1E  returns 0x04 (0001ms, 4098ms total)
T0970 302:086 JLINK_ReadMemEx(0x40023880, 0x0004 Bytes, ..., Flags = 0x02000004) -- CPU_ReadMem(4 bytes @ 0x40023880) - Data: 00 00 00 00  returns 0x04 (0001ms, 4099ms total)
T0970 302:088 JLINK_ReadMemEx(0x40023884, 0x0004 Bytes, ..., Flags = 0x02000004) -- CPU_ReadMem(4 bytes @ 0x40023884) - Data: 00 30 00 24  returns 0x04 (0000ms, 4100ms total)
T0970 302:091 JLINK_ReadMemEx(0x20000214, 0x003C Bytes, ..., Flags = 0x02000000) -- CPU_ReadMem(128 bytes @ 0x20000200) -- Updating C cache (128 bytes @ 0x20000200) -- Read from C cache (60 bytes @ 0x20000214) - Data: 68 F8 0E BD 10 B5 FF F7 DB FF 10 BD 00 21 00 BF ...  returns 0x3C (0001ms, 4101ms total)
T0970 302:093 JLINK_ReadMemEx(0x20000214, 0x0002 Bytes, ..., Flags = 0x02000000) -- Read from C cache (2 bytes @ 0x20000214) - Data: 68 F8  returns 0x02 (0000ms, 4101ms total)
T0970 302:093 JLINK_ReadMemEx(0x20000216, 0x0002 Bytes, ..., Flags = 0x02000000) -- Read from C cache (2 bytes @ 0x20000216) - Data: 0E BD  returns 0x02 (0000ms, 4101ms total)
T0970 302:093 JLINK_ReadMemEx(0x20000218, 0x003C Bytes, ..., Flags = 0x02000000) -- Read from C cache (60 bytes @ 0x20000218) - Data: 10 B5 FF F7 DB FF 10 BD 00 21 00 BF 00 E0 49 1C ...  returns 0x3C (0000ms, 4101ms total)
T0970 302:093 JLINK_ReadMemEx(0x20000218, 0x0002 Bytes, ..., Flags = 0x02000000) -- Read from C cache (2 bytes @ 0x20000218) - Data: 10 B5  returns 0x02 (0000ms, 4101ms total)
T0970 302:093 JLINK_ReadMemEx(0x2000021A, 0x0002 Bytes, ..., Flags = 0x02000000) -- Read from C cache (2 bytes @ 0x2000021A) - Data: FF F7  returns 0x02 (0000ms, 4101ms total)
T0970 302:093 JLINK_ReadMemEx(0x2000021A, 0x0002 Bytes, ..., Flags = 0x02000000) -- Read from C cache (2 bytes @ 0x2000021A) - Data: FF F7  returns 0x02 (0000ms, 4101ms total)
T0970 302:093 JLINK_ReadMemEx(0x2000021C, 0x003C Bytes, ..., Flags = 0x02000000) -- Read from C cache (60 bytes @ 0x2000021C) - Data: DB FF 10 BD 00 21 00 BF 00 E0 49 1C 40 F6 41 22 ...  returns 0x3C (0000ms, 4101ms total)
T0970 302:093 JLINK_ReadMemEx(0x2000021C, 0x0002 Bytes, ..., Flags = 0x02000000) -- Read from C cache (2 bytes @ 0x2000021C) - Data: DB FF  returns 0x02 (0000ms, 4101ms total)
T0970 302:093 JLINK_ReadMemEx(0x2000021E, 0x0002 Bytes, ..., Flags = 0x02000000) -- Read from C cache (2 bytes @ 0x2000021E) - Data: 10 BD  returns 0x02 (0000ms, 4101ms total)
T0970 302:093 JLINK_ReadMemEx(0x20000220, 0x003C Bytes, ..., Flags = 0x02000000) -- Read from C cache (60 bytes @ 0x20000220) - Data: 00 21 00 BF 00 E0 49 1C 40 F6 41 22 42 43 B1 EB ...  returns 0x3C (0000ms, 4101ms total)
T0970 302:093 JLINK_ReadMemEx(0x20000220, 0x0002 Bytes, ..., Flags = 0x02000000) -- Read from C cache (2 bytes @ 0x20000220) - Data: 00 21  returns 0x02 (0000ms, 4101ms total)
T0970 302:093 JLINK_ReadMemEx(0x20000220, 0x003C Bytes, ..., Flags = 0x02000000) -- Read from C cache (60 bytes @ 0x20000220) - Data: 00 21 00 BF 00 E0 49 1C 40 F6 41 22 42 43 B1 EB ...  returns 0x3C (0000ms, 4101ms total)
T0970 302:093 JLINK_ReadMemEx(0x20000220, 0x0002 Bytes, ..., Flags = 0x02000000) -- Read from C cache (2 bytes @ 0x20000220) - Data: 00 21  returns 0x02 (0000ms, 4101ms total)
T0970 302:093 JLINK_ReadMemEx(0x20000222, 0x0002 Bytes, ..., Flags = 0x02000000) -- Read from C cache (2 bytes @ 0x20000222) - Data: 00 BF  returns 0x02 (0000ms, 4101ms total)
T0970 302:093 JLINK_ReadMemEx(0x20000222, 0x0002 Bytes, ..., Flags = 0x02000000) -- Read from C cache (2 bytes @ 0x20000222) - Data: 00 BF  returns 0x02 (0000ms, 4101ms total)
T0970 302:093 JLINK_ReadMemEx(0x20000224, 0x003C Bytes, ..., Flags = 0x02000000) -- Read from C cache (60 bytes @ 0x20000224) - Data: 00 E0 49 1C 40 F6 41 22 42 43 B1 EB C2 0F F8 D3 ...  returns 0x3C (0000ms, 4101ms total)
T0970 302:093 JLINK_ReadMemEx(0x20000224, 0x0002 Bytes, ..., Flags = 0x02000000) -- Read from C cache (2 bytes @ 0x20000224) - Data: 00 E0  returns 0x02 (0000ms, 4101ms total)
T0970 302:093 JLINK_ReadMemEx(0x20000224, 0x003C Bytes, ..., Flags = 0x02000000) -- Read from C cache (60 bytes @ 0x20000224) - Data: 00 E0 49 1C 40 F6 41 22 42 43 B1 EB C2 0F F8 D3 ...  returns 0x3C (0000ms, 4101ms total)
T0970 302:093 JLINK_ReadMemEx(0x20000224, 0x0002 Bytes, ..., Flags = 0x02000000) -- Read from C cache (2 bytes @ 0x20000224) - Data: 00 E0  returns 0x02 (0000ms, 4101ms total)
T0970 302:093 JLINK_ReadMemEx(0x20000226, 0x0002 Bytes, ..., Flags = 0x02000000) -- Read from C cache (2 bytes @ 0x20000226) - Data: 49 1C  returns 0x02 (0000ms, 4101ms total)
T0970 302:093 JLINK_ReadMemEx(0x20000226, 0x0002 Bytes, ..., Flags = 0x02000000) -- Read from C cache (2 bytes @ 0x20000226) - Data: 49 1C  returns 0x02 (0000ms, 4101ms total)
T0970 302:093 JLINK_ReadMemEx(0x20000228, 0x003C Bytes, ..., Flags = 0x02000000) -- Read from C cache (60 bytes @ 0x20000228) - Data: 40 F6 41 22 42 43 B1 EB C2 0F F8 D3 70 47 00 21 ...  returns 0x3C (0001ms, 4102ms total)
T0970 302:094 JLINK_ReadMemEx(0x20000228, 0x0002 Bytes, ..., Flags = 0x02000000) -- Read from C cache (2 bytes @ 0x20000228) - Data: 40 F6  returns 0x02 (0000ms, 4102ms total)
T0970 302:094 JLINK_ReadMemEx(0x20000228, 0x003C Bytes, ..., Flags = 0x02000000) -- Read from C cache (60 bytes @ 0x20000228) - Data: 40 F6 41 22 42 43 B1 EB C2 0F F8 D3 70 47 00 21 ...  returns 0x3C (0000ms, 4102ms total)
T0970 302:094 JLINK_ReadMemEx(0x20000228, 0x0002 Bytes, ..., Flags = 0x02000000) -- Read from C cache (2 bytes @ 0x20000228) - Data: 40 F6  returns 0x02 (0000ms, 4102ms total)
T0970 302:094 JLINK_ReadMemEx(0x2000022A, 0x0002 Bytes, ..., Flags = 0x02000000) -- Read from C cache (2 bytes @ 0x2000022A) - Data: 41 22  returns 0x02 (0000ms, 4102ms total)
T0970 302:094 JLINK_ReadMemEx(0x2000022C, 0x003C Bytes, ..., Flags = 0x02000000) -- Read from C cache (60 bytes @ 0x2000022C) - Data: 42 43 B1 EB C2 0F F8 D3 70 47 00 21 00 BF 00 E0 ...  returns 0x3C (0000ms, 4102ms total)
T0970 302:094 JLINK_ReadMemEx(0x2000022C, 0x0002 Bytes, ..., Flags = 0x02000000) -- Read from C cache (2 bytes @ 0x2000022C) - Data: 42 43  returns 0x02 (0000ms, 4102ms total)
T0970 302:094 JLINK_ReadMemEx(0x2000022E, 0x0002 Bytes, ..., Flags = 0x02000000) -- Read from C cache (2 bytes @ 0x2000022E) - Data: B1 EB  returns 0x02 (0000ms, 4102ms total)
T0970 302:094 JLINK_ReadMemEx(0x2000022E, 0x0002 Bytes, ..., Flags = 0x02000000) -- Read from C cache (2 bytes @ 0x2000022E) - Data: B1 EB  returns 0x02 (0000ms, 4102ms total)
T0970 302:094 JLINK_ReadMemEx(0x20000230, 0x003C Bytes, ..., Flags = 0x02000000) -- Read from C cache (60 bytes @ 0x20000230) - Data: C2 0F F8 D3 70 47 00 21 00 BF 00 E0 49 1C C0 EB ...  returns 0x3C (0000ms, 4102ms total)
T0970 302:094 JLINK_ReadMemEx(0x20000230, 0x0002 Bytes, ..., Flags = 0x02000000) -- Read from C cache (2 bytes @ 0x20000230) - Data: C2 0F  returns 0x02 (0000ms, 4102ms total)
T0970 302:094 JLINK_ReadMemEx(0x20000232, 0x0002 Bytes, ..., Flags = 0x02000000) -- Read from C cache (2 bytes @ 0x20000232) - Data: F8 D3  returns 0x02 (0000ms, 4102ms total)
T0970 302:094 JLINK_ReadMemEx(0x20000234, 0x003C Bytes, ..., Flags = 0x02000000) -- Read from C cache (60 bytes @ 0x20000234) - Data: 70 47 00 21 00 BF 00 E0 49 1C C0 EB C0 02 02 EB ...  returns 0x3C (0000ms, 4102ms total)
T0970 302:094 JLINK_ReadMemEx(0x20000234, 0x0002 Bytes, ..., Flags = 0x02000000) -- Read from C cache (2 bytes @ 0x20000234) - Data: 70 47  returns 0x02 (0000ms, 4102ms total)
T0970 302:094 JLINK_ReadMemEx(0x20000234, 0x003C Bytes, ..., Flags = 0x02000000) -- Read from C cache (60 bytes @ 0x20000234) - Data: 70 47 00 21 00 BF 00 E0 49 1C C0 EB C0 02 02 EB ...  returns 0x3C (0000ms, 4102ms total)
T0970 302:094 JLINK_ReadMemEx(0x20000234, 0x0002 Bytes, ..., Flags = 0x02000000) -- Read from C cache (2 bytes @ 0x20000234) - Data: 70 47  returns 0x02 (0000ms, 4102ms total)
T0970 302:094 JLINK_ReadMemEx(0x20000236, 0x0002 Bytes, ..., Flags = 0x02000000) -- Read from C cache (2 bytes @ 0x20000236) - Data: 00 21  returns 0x02 (0000ms, 4102ms total)
T0970 302:094 JLINK_ReadMemEx(0x20000236, 0x0002 Bytes, ..., Flags = 0x02000000) -- Read from C cache (2 bytes @ 0x20000236) - Data: 00 21  returns 0x02 (0000ms, 4102ms total)
T0970 302:094 JLINK_ReadMemEx(0x20000238, 0x003C Bytes, ..., Flags = 0x02000000) -- Read from C cache (60 bytes @ 0x20000238) - Data: 00 BF 00 E0 49 1C C0 EB C0 02 02 EB 42 02 8A 42 ...  returns 0x3C (0000ms, 4102ms total)
T0970 302:094 JLINK_ReadMemEx(0x20000238, 0x0002 Bytes, ..., Flags = 0x02000000) -- Read from C cache (2 bytes @ 0x20000238) - Data: 00 BF  returns 0x02 (0000ms, 4102ms total)
T0970 302:094 JLINK_ReadMemEx(0x20000238, 0x003C Bytes, ..., Flags = 0x02000000) -- Read from C cache (60 bytes @ 0x20000238) - Data: 00 BF 00 E0 49 1C C0 EB C0 02 02 EB 42 02 8A 42 ...  returns 0x3C (0000ms, 4102ms total)
T0970 302:094 JLINK_ReadMemEx(0x20000238, 0x0002 Bytes, ..., Flags = 0x02000000) -- Read from C cache (2 bytes @ 0x20000238) - Data: 00 BF  returns 0x02 (0001ms, 4103ms total)
T0970 302:095 JLINK_ReadMemEx(0x2000023A, 0x0002 Bytes, ..., Flags = 0x02000000) -- Read from C cache (2 bytes @ 0x2000023A) - Data: 00 E0  returns 0x02 (0000ms, 4103ms total)
T0970 302:095 JLINK_ReadMemEx(0x2000023A, 0x0002 Bytes, ..., Flags = 0x02000000) -- Read from C cache (2 bytes @ 0x2000023A) - Data: 00 E0  returns 0x02 (0000ms, 4103ms total)
T0970 302:095 JLINK_ReadMemEx(0x2000023C, 0x003C Bytes, ..., Flags = 0x02000000) -- Read from C cache (60 bytes @ 0x2000023C) - Data: 49 1C C0 EB C0 02 02 EB 42 02 8A 42 F8 D8 70 47 ...  returns 0x3C (0000ms, 4103ms total)
T0970 302:095 JLINK_ReadMemEx(0x2000023C, 0x0002 Bytes, ..., Flags = 0x02000000) -- Read from C cache (2 bytes @ 0x2000023C) - Data: 49 1C  returns 0x02 (0000ms, 4103ms total)
T0970 302:095 JLINK_ReadMemEx(0x2000023C, 0x003C Bytes, ..., Flags = 0x02000000) -- Read from C cache (60 bytes @ 0x2000023C) - Data: 49 1C C0 EB C0 02 02 EB 42 02 8A 42 F8 D8 70 47 ...  returns 0x3C (0000ms, 4103ms total)
T0970 302:095 JLINK_ReadMemEx(0x2000023C, 0x0002 Bytes, ..., Flags = 0x02000000) -- Read from C cache (2 bytes @ 0x2000023C) - Data: 49 1C  returns 0x02 (0000ms, 4103ms total)
T0970 302:095 JLINK_ReadMemEx(0x2000023E, 0x0002 Bytes, ..., Flags = 0x02000000) -- Read from C cache (2 bytes @ 0x2000023E) - Data: C0 EB  returns 0x02 (0000ms, 4103ms total)
T0970 302:095 JLINK_ReadMemEx(0x2000023E, 0x0002 Bytes, ..., Flags = 0x02000000) -- Read from C cache (2 bytes @ 0x2000023E) - Data: C0 EB  returns 0x02 (0000ms, 4103ms total)
T0970 302:095 JLINK_ReadMemEx(0x20000240, 0x003C Bytes, ..., Flags = 0x02000000) -- Read from C cache (60 bytes @ 0x20000240) - Data: C0 02 02 EB 42 02 8A 42 F8 D8 70 47 00 1C 02 40 ...  returns 0x3C (0000ms, 4103ms total)
